Freq.	V(vi)/I(C)
Step Information: Run=1  (Run: 1/100)
1.00000000000000e+001	-2.27102429411532e+005,4.78498359153895e+008
1.02329299228075e+001	-2.27102429411532e+005,4.67606406731468e+008
1.04712854805090e+001	-2.27102429411532e+005,4.56962385415392e+008
1.07151930523761e+001	-2.27102429411532e+005,4.46560651604676e+008
1.09647819614319e+001	-2.27102429411532e+005,4.36395690162370e+008
1.12201845430196e+001	-2.27102429411532e+005,4.26462111491367e+008
1.14815362149688e+001	-2.27102429411532e+005,4.16754648676771e+008
1.17489755493953e+001	-2.27102429411532e+005,4.07268154693302e+008
1.20226443461741e+001	-2.27102429411532e+005,3.97997599676284e+008
1.23026877081238e+001	-2.27102429411532e+005,3.88938068254735e+008
1.25892541179417e+001	-2.27102429411532e+005,3.80084756945179e+008
1.28824955169313e+001	-2.27102429411532e+005,3.71432971604771e+008
1.31825673855641e+001	-2.27102429411532e+005,3.62978124942405e+008
1.34896288259165e+001	-2.27102429411532e+005,3.54715734086467e+008
1.38038426460288e+001	-2.27102429411532e+005,3.46641418207960e+008
1.41253754462275e+001	-2.27102429411532e+005,3.38750896197727e+008
1.44543977074593e+001	-2.27102429411532e+005,3.31039984396557e+008
1.47910838816821e+001	-2.27102429411532e+005,3.23504594376947e+008
1.51356124843621e+001	-2.27102429411532e+005,3.16140730775364e+008
1.54881661891248e+001	-2.27102429411532e+005,3.08944489173856e+008
1.58489319246111e+001	-2.27102429411532e+005,3.01912054029872e+008
1.62181009735893e+001	-2.27102429411532e+005,2.95039696653212e+008
1.65958690743756e+001	-2.27102429411532e+005,2.88323773229031e+008
1.69824365246174e+001	-2.27102429411532e+005,2.81760722885831e+008
1.73780082874937e+001	-2.27102429411532e+005,2.75347065807450e+008
1.77827941003892e+001	-2.27102429411532e+005,2.69079401388009e+008
1.81970085860998e+001	-2.27102429411532e+005,2.62954406428871e+008
1.86208713666287e+001	-2.27102429411532e+005,2.56968833376635e+008
1.90546071796325e+001	-2.27102429411532e+005,2.51119508601239e+008
1.94984459975804e+001	-2.27102429411532e+005,2.45403330713264e+008
1.99526231496888e+001	-2.27102429411532e+005,2.39817268919530e+008
2.04173794466953e+001	-2.27102429411532e+005,2.34358361416134e+008
2.08929613085404e+001	-2.27102429411532e+005,2.29023713818060e+008
2.13796208950223e+001	-2.27102429411532e+005,2.23810497624540e+008
2.18776162394955e+001	-2.27102429411532e+005,2.18715948719343e+008
2.23872113856834e+001	-2.27102429411532e+005,2.13737365905204e+008
2.29086765276777e+001	-2.27102429411532e+005,2.08872109471617e+008
2.34422881531992e+001	-2.27102429411532e+005,2.04117599795221e+008
2.39883291901949e+001	-2.27102429411532e+005,1.99471315972052e+008
2.45470891568503e+001	-2.27102429411532e+005,1.94930794480926e+008
2.51188643150958e+001	-2.27102429411532e+005,1.90493627877249e+008
2.57039578276886e+001	-2.27102429411532e+005,1.86157463516553e+008
2.63026799189538e+001	-2.27102429411532e+005,1.81920002307099e+008
2.69153480392691e+001	-2.27102429411532e+005,1.77778997490864e+008
2.75422870333816e+001	-2.27102429411532e+005,1.73732253452282e+008
2.81838293126445e+001	-2.27102429411532e+005,1.69777624554099e+008
2.88403150312660e+001	-2.27102429411532e+005,1.65913013999726e+008
2.95120922666638e+001	-2.27102429411532e+005,1.62136372721495e+008
3.01995172040201e+001	-2.27102429411532e+005,1.58445698294210e+008
3.09029543251359e+001	-2.27102429411532e+005,1.54839033873436e+008
3.16227766016838e+001	-2.27102429411532e+005,1.51314467157959e+008
3.23593656929628e+001	-2.27102429411532e+005,1.47870129375854e+008
3.31131121482591e+001	-2.27102429411532e+005,1.44504194293635e+008
3.38844156139202e+001	-2.27102429411532e+005,1.41214877247971e+008
3.46736850452531e+001	-2.27102429411532e+005,1.38000434199423e+008
3.54813389233575e+001	-2.27102429411532e+005,1.34859160807739e+008
3.63078054770101e+001	-2.27102429411532e+005,1.31789391528188e+008
3.71535229097172e+001	-2.27102429411532e+005,1.28789498728464e+008
3.80189396320561e+001	-2.27102429411532e+005,1.25857891825696e+008
3.89045144994280e+001	-2.27102429411532e+005,1.22993016443100e+008
3.98107170553497e+001	-2.27102429411532e+005,1.20193353585827e+008
4.07380277804112e+001	-2.27102429411532e+005,1.17457418835573e+008
4.16869383470335e+001	-2.27102429411532e+005,1.14783761563518e+008
4.26579518801592e+001	-2.27102429411532e+005,1.12170964161187e+008
4.36515832240165e+001	-2.27102429411532e+005,1.09617641288812e+008
4.46683592150962e+001	-2.27102429411532e+005,1.07122439140810e+008
4.57088189614874e+001	-2.27102429411532e+005,1.04684034727973e+008
4.67735141287197e+001	-2.27102429411532e+005,1.02301135176006e+008
4.78630092322638e+001	-2.27102429411532e+005,9.99724770400248e+007
4.89778819368445e+001	-2.27102429411532e+005,9.76968256346625e+007
5.01187233627271e+001	-2.27102429411532e+005,9.54729743794221e+007
5.12861383991364e+001	-2.27102429411532e+005,9.32997441589317e+007
5.24807460249772e+001	-2.27102429411532e+005,9.11759826977626e+007
5.37031796370252e+001	-2.27102429411532e+005,8.91005639494767e+007
5.49540873857624e+001	-2.27102429411532e+005,8.70723874995821e+007
5.62341325190348e+001	-2.27102429411532e+005,8.50903779820791e+007
5.75439937337156e+001	-2.27102429411532e+005,8.31534845092866e+007
5.88843655355588e+001	-2.27102429411532e+005,8.12606801146473e+007
6.02559586074357e+001	-2.27102429411532e+005,7.94109612082171e+007
6.16595001861481e+001	-2.27102429411532e+005,7.76033470445478e+007
6.30957344480192e+001	-2.27102429411532e+005,7.58368792026833e+007
6.45654229034654e+001	-2.27102429411532e+005,7.41106210779918e+007
6.60693448007595e+001	-2.27102429411532e+005,7.24236573855658e+007
6.76082975391980e+001	-2.27102429411532e+005,7.07750936749262e+007
6.91830970918935e+001	-2.27102429411533e+005,6.91640558557721e+007
7.07945784384136e+001	-2.27102429411533e+005,6.75896897345273e+007
7.24435960074988e+001	-2.27102429411533e+005,6.60511605614349e+007
7.41310241300916e+001	-2.27102429411533e+005,6.45476525879628e+007
7.58577575029182e+001	-2.27102429411533e+005,6.30783686342820e+007
7.76247116628690e+001	-2.27102429411533e+005,6.16425296665919e+007
7.94328234724279e+001	-2.27102429411533e+005,6.02393743840665e+007
8.12830516164097e+001	-2.27102429411533e+005,5.88681588152018e+007
8.31763771102669e+001	-2.27102429411533e+005,5.75281559233532e+007
8.51138038202374e+001	-2.27102429411533e+005,5.62186552212503e+007
8.70963589956078e+001	-2.27102429411533e+005,5.49389623942876e+007
8.91250938133743e+001	-2.27102429411533e+005,5.36883989323895e+007
9.12010839355907e+001	-2.27102429411533e+005,5.24663017702553e+007
9.33254300796988e+001	-2.27102429411533e+005,5.12720229357933e+007
9.54992586021433e+001	-2.27102429411533e+005,5.01049292065573e+007
9.77237220955808e+001	-2.27102429411533e+005,4.89644017740037e+007
9.99999999999997e+001	-2.27102429411533e+005,4.78498359153913e+007
1.02329299228075e+002	-2.27102429411534e+005,4.67606406731486e+007
1.04712854805090e+002	-2.27102429411534e+005,4.56962385415410e+007
1.07151930523760e+002	-2.27102429411534e+005,4.46560651604694e+007
1.09647819614318e+002	-2.27102429411534e+005,4.36395690162388e+007
1.12201845430196e+002	-2.27102429411534e+005,4.26462111491386e+007
1.14815362149688e+002	-2.27102429411534e+005,4.16754648676790e+007
1.17489755493953e+002	-2.27102429411534e+005,4.07268154693322e+007
1.20226443461741e+002	-2.27102429411534e+005,3.97997599676305e+007
1.23026877081238e+002	-2.27102429411534e+005,3.88938068254756e+007
1.25892541179416e+002	-2.27102429411534e+005,3.80084756945200e+007
1.28824955169313e+002	-2.27102429411535e+005,3.71432971604793e+007
1.31825673855640e+002	-2.27102429411535e+005,3.62978124942427e+007
1.34896288259165e+002	-2.27102429411535e+005,3.54715734086490e+007
1.38038426460288e+002	-2.27102429411535e+005,3.46641418207983e+007
1.41253754462275e+002	-2.27102429411535e+005,3.38750896197751e+007
1.44543977074592e+002	-2.27102429411535e+005,3.31039984396581e+007
1.47910838816820e+002	-2.27102429411535e+005,3.23504594376971e+007
1.51356124843620e+002	-2.27102429411536e+005,3.16140730775389e+007
1.54881661891248e+002	-2.27102429411536e+005,3.08944489173882e+007
1.58489319246111e+002	-2.27102429411536e+005,3.01912054029898e+007
1.62181009735892e+002	-2.27102429411536e+005,2.95039696653239e+007
1.65958690743755e+002	-2.27102429411536e+005,2.88323773229058e+007
1.69824365246174e+002	-2.27102429411537e+005,2.81760722885859e+007
1.73780082874937e+002	-2.27102429411537e+005,2.75347065807479e+007
1.77827941003892e+002	-2.27102429411537e+005,2.69079401388039e+007
1.81970085860998e+002	-2.27102429411537e+005,2.62954406428901e+007
1.86208713666286e+002	-2.27102429411538e+005,2.56968833376666e+007
1.90546071796324e+002	-2.27102429411538e+005,2.51119508601271e+007
1.94984459975804e+002	-2.27102429411538e+005,2.45403330713296e+007
1.99526231496887e+002	-2.27102429411539e+005,2.39817268919563e+007
2.04173794466952e+002	-2.27102429411539e+005,2.34358361416167e+007
2.08929613085403e+002	-2.27102429411539e+005,2.29023713818094e+007
2.13796208950222e+002	-2.27102429411540e+005,2.23810497624575e+007
2.18776162394954e+002	-2.27102429411540e+005,2.18715948719378e+007
2.23872113856833e+002	-2.27102429411540e+005,2.13737365905240e+007
2.29086765276776e+002	-2.27102429411541e+005,2.08872109471654e+007
2.34422881531991e+002	-2.27102429411541e+005,2.04117599795259e+007
2.39883291901948e+002	-2.27102429411542e+005,1.99471315972091e+007
2.45470891568502e+002	-2.27102429411542e+005,1.94930794480966e+007
2.51188643150957e+002	-2.27102429411543e+005,1.90493627877290e+007
2.57039578276885e+002	-2.27102429411543e+005,1.86157463516595e+007
2.63026799189537e+002	-2.27102429411544e+005,1.81920002307142e+007
2.69153480392690e+002	-2.27102429411544e+005,1.77778997490908e+007
2.75422870333816e+002	-2.27102429411545e+005,1.73732253452327e+007
2.81838293126444e+002	-2.27102429411545e+005,1.69777624554144e+007
2.88403150312659e+002	-2.27102429411546e+005,1.65913013999773e+007
2.95120922666637e+002	-2.27102429411547e+005,1.62136372721543e+007
3.01995172040200e+002	-2.27102429411548e+005,1.58445698294258e+007
3.09029543251358e+002	-2.27102429411548e+005,1.54839033873486e+007
3.16227766016837e+002	-2.27102429411549e+005,1.51314467158010e+007
3.23593656929627e+002	-2.27102429411550e+005,1.47870129375906e+007
3.31131121482590e+002	-2.27102429411551e+005,1.44504194293689e+007
3.38844156139201e+002	-2.27102429411552e+005,1.41214877248025e+007
3.46736850452530e+002	-2.27102429411553e+005,1.38000434199479e+007
3.54813389233574e+002	-2.27102429411554e+005,1.34859160807796e+007
3.63078054770100e+002	-2.27102429411555e+005,1.31789391528247e+007
3.71535229097171e+002	-2.27102429411556e+005,1.28789498728524e+007
3.80189396320559e+002	-2.27102429411557e+005,1.25857891825757e+007
3.89045144994279e+002	-2.27102429411558e+005,1.22993016443163e+007
3.98107170553495e+002	-2.27102429411559e+005,1.20193353585892e+007
4.07380277804111e+002	-2.27102429411561e+005,1.17457418835639e+007
4.16869383470333e+002	-2.27102429411562e+005,1.14783761563585e+007
4.26579518801591e+002	-2.27102429411563e+005,1.12170964161256e+007
4.36515832240164e+002	-2.27102429411565e+005,1.09617641288882e+007
4.46683592150961e+002	-2.27102429411566e+005,1.07122439140882e+007
4.57088189614873e+002	-2.27102429411568e+005,1.04684034728047e+007
4.67735141287196e+002	-2.27102429411570e+005,1.02301135176081e+007
4.78630092322636e+002	-2.27102429411571e+005,9.99724770401018e+006
4.89778819368444e+002	-2.27102429411573e+005,9.76968256347412e+006
5.01187233627270e+002	-2.27102429411575e+005,9.54729743795026e+006
5.12861383991362e+002	-2.27102429411577e+005,9.32997441590142e+006
5.24807460249770e+002	-2.27102429411580e+005,9.11759826978469e+006
5.37031796370250e+002	-2.27102429411582e+005,8.91005639495629e+006
5.49540873857622e+002	-2.27102429411584e+005,8.70723874996703e+006
5.62341325190346e+002	-2.27102429411587e+005,8.50903779821694e+006
5.75439937337154e+002	-2.27102429411589e+005,8.31534845093789e+006
5.88843655355586e+002	-2.27102429411592e+005,8.12606801147418e+006
6.02559586074355e+002	-2.27102429411595e+005,7.94109612083138e+006
6.16595001861479e+002	-2.27102429411598e+005,7.76033470446467e+006
6.30957344480190e+002	-2.27102429411601e+005,7.58368792027845e+006
6.45654229034652e+002	-2.27102429411604e+005,7.41106210780953e+006
6.60693448007592e+002	-2.27102429411608e+005,7.24236573856718e+006
6.76082975391978e+002	-2.27102429411611e+005,7.07750936750346e+006
6.91830970918933e+002	-2.27102429411615e+005,6.91640558558830e+006
7.07945784384134e+002	-2.27102429411619e+005,6.75896897346408e+006
7.24435960074986e+002	-2.27102429411623e+005,6.60511605615511e+006
7.41310241300914e+002	-2.27102429411627e+005,6.45476525880816e+006
7.58577575029180e+002	-2.27102429411632e+005,6.30783686344036e+006
7.76247116628688e+002	-2.27102429411637e+005,6.16425296667164e+006
7.94328234724277e+002	-2.27102429411642e+005,6.02393743841938e+006
8.12830516164095e+002	-2.27102429411647e+005,5.88681588153321e+006
8.31763771102666e+002	-2.27102429411652e+005,5.75281559234865e+006
8.51138038202372e+002	-2.27102429411658e+005,5.62186552213867e+006
8.70963589956076e+002	-2.27102429411664e+005,5.49389623944272e+006
8.91250938133741e+002	-2.27102429411670e+005,5.36883989325323e+006
9.12010839355905e+002	-2.27102429411677e+005,5.24663017704014e+006
9.33254300796986e+002	-2.27102429411684e+005,5.12720229359428e+006
9.54992586021431e+002	-2.27102429411691e+005,5.01049292067103e+006
9.77237220955805e+002	-2.27102429411698e+005,4.89644017741603e+006
9.99999999999994e+002	-2.27102429411706e+005,4.78498359155514e+006
1.02329299228075e+003	-2.27102429411714e+005,4.67606406733125e+006
1.04712854805089e+003	-2.27102429411723e+005,4.56962385417088e+006
1.07151930523760e+003	-2.27102429411732e+005,4.46560651606411e+006
1.09647819614318e+003	-2.27102429411742e+005,4.36395690164145e+006
1.12201845430196e+003	-2.27102429411751e+005,4.26462111493183e+006
1.14815362149688e+003	-2.27102429411762e+005,4.16754648678629e+006
1.17489755493952e+003	-2.27102429411773e+005,4.07268154695205e+006
1.20226443461741e+003	-2.27102429411784e+005,3.97997599678231e+006
1.23026877081237e+003	-2.27102429411796e+005,3.88938068256727e+006
1.25892541179416e+003	-2.27102429411809e+005,3.80084756947217e+006
1.28824955169313e+003	-2.27102429411822e+005,3.71432971606857e+006
1.31825673855640e+003	-2.27102429411836e+005,3.62978124944539e+006
1.34896288259165e+003	-2.27102429411850e+005,3.54715734088651e+006
1.38038426460288e+003	-2.27102429411865e+005,3.46641418210194e+006
1.41253754462275e+003	-2.27102429411881e+005,3.38750896200014e+006
1.44543977074592e+003	-2.27102429411898e+005,3.31039984398897e+006
1.47910838816820e+003	-2.27102429411915e+005,3.23504594379341e+006
1.51356124843620e+003	-2.27102429411933e+005,3.16140730777814e+006
1.54881661891247e+003	-2.27102429411952e+005,3.08944489176363e+006
1.58489319246110e+003	-2.27102429411972e+005,3.01912054032437e+006
1.62181009735892e+003	-2.27102429411993e+005,2.95039696655838e+006
1.65958690743755e+003	-2.27102429412015e+005,2.88323773231717e+006
1.69824365246173e+003	-2.27102429412038e+005,2.81760722888581e+006
1.73780082874936e+003	-2.27102429412063e+005,2.75347065810263e+006
1.77827941003891e+003	-2.27102429412088e+005,2.69079401390888e+006
1.81970085860997e+003	-2.27102429412115e+005,2.62954406431817e+006
1.86208713666286e+003	-2.27102429412142e+005,2.56968833379650e+006
1.90546071796323e+003	-2.27102429412171e+005,2.51119508604325e+006
1.94984459975803e+003	-2.27102429412202e+005,2.45403330716421e+006
1.99526231496887e+003	-2.27102429412234e+005,2.39817268922761e+006
2.04173794466952e+003	-2.27102429412268e+005,2.34358361419440e+006
2.08929613085403e+003	-2.27102429412303e+005,2.29023713821444e+006
2.13796208950222e+003	-2.27102429412340e+005,2.23810497628002e+006
2.18776162394954e+003	-2.27102429412379e+005,2.18715948722886e+006
2.23872113856832e+003	-2.27102429412420e+005,2.13737365908830e+006
2.29086765276776e+003	-2.27102429412462e+005,2.08872109475328e+006
2.34422881531991e+003	-2.27102429412507e+005,2.04117599799018e+006
2.39883291901947e+003	-2.27102429412554e+005,1.99471315975938e+006
2.45470891568501e+003	-2.27102429412603e+005,1.94930794484904e+006
2.51188643150956e+003	-2.27102429412655e+005,1.90493627881319e+006
2.57039578276885e+003	-2.27102429412709e+005,1.86157463520718e+006
2.63026799189536e+003	-2.27102429412766e+005,1.81920002311362e+006
2.69153480392690e+003	-2.27102429412826e+005,1.77778997495227e+006
2.75422870333815e+003	-2.27102429412889e+005,1.73732253456747e+006
2.81838293126443e+003	-2.27102429412955e+005,1.69777624558668e+006
2.88403150312659e+003	-2.27102429413024e+005,1.65913014004403e+006
2.95120922666636e+003	-2.27102429413097e+005,1.62136372726281e+006
3.01995172040199e+003	-2.27102429413173e+005,1.58445698299108e+006
3.09029543251357e+003	-2.27102429413253e+005,1.54839033878450e+006
3.16227766016836e+003	-2.27102429413338e+005,1.51314467163091e+006
3.23593656929626e+003	-2.27102429413426e+005,1.47870129381105e+006
3.31131121482589e+003	-2.27102429413519e+005,1.44504194299010e+006
3.38844156139200e+003	-2.27102429413617e+005,1.41214877253472e+006
3.46736850452529e+003	-2.27102429413720e+005,1.38000434205054e+006
3.54813389233573e+003	-2.27102429413828e+005,1.34859160813503e+006
3.63078054770099e+003	-2.27102429413942e+005,1.31789391534087e+006
3.71535229097170e+003	-2.27102429414061e+005,1.28789498734502e+006
3.80189396320558e+003	-2.27102429414187e+005,1.25857891831876e+006
3.89045144994278e+003	-2.27102429414319e+005,1.22993016449426e+006
3.98107170553494e+003	-2.27102429414459e+005,1.20193353592303e+006
4.07380277804110e+003	-2.27102429414605e+005,1.17457418842202e+006
4.16869383470332e+003	-2.27102429414760e+005,1.14783761570304e+006
4.26579518801589e+003	-2.27102429414922e+005,1.12170964168134e+006
4.36515832240162e+003	-2.27102429415094e+005,1.09617641295924e+006
4.46683592150960e+003	-2.27102429415274e+005,1.07122439148090e+006
4.57088189614871e+003	-2.27102429415464e+005,1.04684034735426e+006
4.67735141287194e+003	-2.27102429415665e+005,1.02301135183637e+006
4.78630092322634e+003	-2.27102429415876e+005,9.99724770478377e+005
4.89778819368442e+003	-2.27102429416099e+005,9.76968256426620e+005
5.01187233627268e+003	-2.27102429416335e+005,9.54729743876129e+005
5.12861383991361e+003	-2.27102429416583e+005,9.32997441673190e+005
5.24807460249768e+003	-2.27102429416845e+005,9.11759827063515e+005
5.37031796370248e+003	-2.27102429417122e+005,8.91005639582724e+005
5.49540873857620e+003	-2.27102429417414e+005,8.70723875085902e+005
5.62341325190344e+003	-2.27102429417723e+005,8.50903779913053e+005
5.75439937337152e+003	-2.27102429418049e+005,8.31534845187367e+005
5.88843655355584e+003	-2.27102429418394e+005,8.12606801243276e+005
6.02559586074353e+003	-2.27102429418758e+005,7.94109612181340e+005
6.16595001861477e+003	-2.27102429419143e+005,7.76033470547081e+005
6.30957344480188e+003	-2.27102429419550e+005,7.58368792130939e+005
6.45654229034650e+003	-2.27102429419981e+005,7.41106210886601e+005
6.60693448007590e+003	-2.27102429420436e+005,7.24236573964996e+005
6.76082975391976e+003	-2.27102429420917e+005,7.07750936861335e+005
6.91830970918931e+003	-2.27102429421426e+005,6.91640558672616e+005
7.07945784384132e+003	-2.27102429421963e+005,6.75896897463079e+005
7.24435960074984e+003	-2.27102429422530e+005,6.60511605735164e+005
7.41310241300911e+003	-2.27102429423129e+005,6.45476526003552e+005
7.58577575029177e+003	-2.27102429423760e+005,6.30783686469963e+005
7.76247116628685e+003	-2.27102429424424e+005,6.16425296796397e+005
7.94328234724275e+003	-2.27102429425121e+005,6.02393743974603e+005
8.12830516164092e+003	-2.27102429425852e+005,5.88681588289550e+005
8.31763771102664e+003	-2.27102429426616e+005,5.75281559374803e+005
8.51138038202369e+003	-2.27102429427411e+005,5.62186552357670e+005
8.70963589956073e+003	-2.27102429428234e+005,5.49389624092109e+005
8.91250938133738e+003	-2.27102429429080e+005,5.36883989477378e+005
9.12010839355902e+003	-2.27102429429943e+005,5.24663017860487e+005
